hour, t(sec), V1, VAngle1, V2, VAngle2, V3, VAngle3, V4, VAngle4, I1, IAngle1, I2, IAngle2, I3, IAngle3, I4, IAngle4
0, 60.00000, 18886, -0.702631, 18886, -120.703, 18886, 119.297, 0, 0, 7.6379, -8.83251, 7.6379, -128.833, 7.6379, 111.167, 1.49035E-009, -128.83
0, 120.00000, 18880.3, -0.730306, 18880.3, -120.73, 18880.3, 119.27, 0, 0, 8.22193, -8.86002, 8.22193, -128.86, 8.22193, 111.14, 1.60431E-009, -128.858
0, 180.00000, 18804.1, -0.976499, 18804.1, -120.977, 18804.1, 119.023, 0, 0, 8.37059, -9.10641, 8.37059, -129.106, 8.37059, 110.894, 1.63313E-009, -129.1
0, 240.00000, 18753.2, -1.14964, 18753.2, -121.15, 18753.2, 118.85, 0, 0, 10.3062, -9.27957, 10.3062, -129.28, 10.3062, 110.72, 2.01059E-009, -129.27
0, 300.00000, 18723.6, -1.31016, 18723.6, -121.31, 18723.6, 118.69, 0, 0, 13.3605, -9.43865, 13.3605, -129.439, 13.3605, 110.561, 2.60633E-009, -129.427
0, 360.00000, 18783.3, -1.13042, 18783.3, -121.13, 18783.3, 118.87, 0, 0, 14.156, -9.26069, 14.156, -129.261, 14.156, 110.739, 2.76174E-009, -129.253
0, 420.00000, 18705.8, -1.42929, 18705.8, -121.429, 18705.8, 118.571, 0, 0, 23.9698, -9.55907, 23.9698, -129.559, 23.9698, 110.441, 4.67561E-009, -129.546
0, 480.00000, 18716.7, -1.39353, 18716.7, -121.394, 18716.7, 118.606, 0, 0, 21.7249, -9.5244, 21.7249, -129.524, 21.7249, 110.476, 4.23776E-009, -129.511
0, 540.00000, 18715.2, -1.40041, 18715.2, -121.4, 18715.2, 118.6, 0, 0, 21.9742, -9.53043, 21.9742, -129.53, 21.9742, 110.47, 4.28642E-009, -129.518
0, 600.00000, 18765.6, -1.20854, 18765.6, -121.209, 18765.6, 118.791, 0, 0, 14.5172, -9.3388, 14.5172, -129.339, 14.5172, 110.661, 2.83211E-009, -129.33
0, 660.00000, 18759.5, -1.23061, 18759.5, -121.231, 18759.5, 118.769, 0, 0, 14.2089, -9.36025, 14.2089, -129.36, 14.2089, 110.64, 2.77195E-009, -129.351
0, 720.00000, 18720, -1.36596, 18720, -121.366, 18720, 118.634, 0, 0, 16.7811, -9.49299, 16.7811, -129.493, 16.7811, 110.507, 3.27361E-009, -129.483
0, 780.00000, 18695.7, -1.50699, 18695.7, -121.507, 18695.7, 118.493, 0, 0, 19.1933, -9.63585, 19.1933, -129.636, 19.1933, 110.364, 3.74391E-009, -129.622
0, 840.00000, 18700.5, -1.49691, 18700.5, -121.497, 18700.5, 118.503, 0, 0, 19.4004, -9.62746, 19.4004, -129.627, 19.4004, 110.373, 3.78415E-009, -129.613
0, 900.00000, 18723.4, -1.44887, 18723.4, -121.449, 18723.4, 118.551, 0, 0, 17.392, -9.58112, 17.392, -129.581, 17.392, 110.419, 3.39249E-009, -129.567
0, 960.00000, 18733.5, -1.40412, 18733.5, -121.404, 18733.5, 118.596, 0, 0, 15.1477, -9.53483, 15.1477, -129.535, 15.1477, 110.465, 2.9548E-009, -129.522
0, 1020.00000, 18727.6, -1.42218, 18727.6, -121.422, 18727.6, 118.578, 0, 0, 15.1191, -9.55178, 15.1191, -129.552, 15.1191, 110.448, 2.94927E-009, -129.539
0, 1080.00000, 18720.1, -1.42335, 18720.1, -121.423, 18720.1, 118.577, 0, 0, 16.169, -9.55266, 16.169, -129.553, 16.169, 110.447, 3.15402E-009, -129.54
0, 1140.00000, 18663.8, -1.65127, 18663.8, -121.651, 18663.8, 118.349, 0, 0, 25.2171, -9.78107, 25.2171, -129.781, 25.2171, 110.219, 4.91831E-009, -129.764
0, 1200.00000, 18600.6, -1.87564, 18600.6, -121.876, 18600.6, 118.124, 0, 0, 25.3724, -10.0053, 25.3724, -130.005, 25.3724, 109.995, 4.94777E-009, -129.982
0, 1260.00000, 18638.4, -1.71425, 18638.4, -121.714, 18638.4, 118.286, 0, 0, 25.2365, -9.84459, 25.2365, -129.845, 25.2365, 110.155, 4.92187E-009, -129.825
0, 1320.00000, 18681.5, -1.55002, 18681.5, -121.55, 18681.5, 118.45, 0, 0, 17.0013, -9.68032, 17.0013, -129.68, 17.0013, 110.32, 3.31613E-009, -129.664
0, 1380.00000, 18687.7, -1.54468, 18687.7, -121.545, 18687.7, 118.455, 0, 0, 17.0639, -9.67551, 17.0639, -129.676, 17.0639, 110.324, 3.32837E-009, -129.66
0, 1440.00000, 18721.6, -1.45134, 18721.6, -121.451, 18721.6, 118.549, 0, 0, 17.5112, -9.58459, 17.5112, -129.585, 17.5112, 110.415, 3.41577E-009, -129.57
0, 1500.00000, 18714.9, -1.47904, 18714.9, -121.479, 18714.9, 118.521, 0, 0, 17.963, -9.60866, 17.963, -129.609, 17.963, 110.391, 3.50399E-009, -129.596
0, 1560.00000, 18692.2, -1.55488, 18692.2, -121.555, 18692.2, 118.445, 0, 0, 18.2641, -9.68303, 18.2641, -129.683, 18.2641, 110.317, 3.56259E-009, -129.669
0, 1620.00000, 18685.8, -1.61553, 18685.8, -121.616, 18685.8, 118.384, 0, 0, 18.4878, -9.74551, 18.4878, -129.746, 18.4878, 110.254, 3.6061E-009, -129.73
0, 1680.00000, 18666.2, -1.69109, 18666.2, -121.691, 18666.2, 118.309, 0, 0, 18.6822, -9.81957, 18.6822, -129.82, 18.6822, 110.18, 3.64384E-009, -129.803
0, 1740.00000, 18680.9, -1.64282, 18680.9, -121.643, 18680.9, 118.357, 0, 0, 18.8951, -9.77428, 18.8951, -129.774, 18.8951, 110.226, 3.68533E-009, -129.757
0, 1800.00000, 18694.3, -1.56917, 18694.3, -121.569, 18694.3, 118.431, 0, 0, 17.4783, -9.70003, 17.4783, -129.7, 17.4783, 110.3, 3.40912E-009, -129.684
0, 1860.00000, 18715.3, -1.50704, 18715.3, -121.507, 18715.3, 118.493, 0, 0, 17.0482, -9.63904, 17.0482, -129.639, 17.0482, 110.361, 3.32541E-009, -129.625
0, 1920.00000, 18696.6, -1.55566, 18696.6, -121.556, 18696.6, 118.444, 0, 0, 17.8188, -9.68403, 17.8188, -129.684, 17.8188, 110.316, 3.47573E-009, -129.67
0, 1980.00000, 18712, -1.45405, 18712, -121.454, 18712, 118.546, 0, 0, 16.6556, -9.58489, 16.6556, -129.585, 16.6556, 110.415, 3.24886E-009, -129.571
0, 2040.00000, 18705.3, -1.47888, 18705.3, -121.479, 18705.3, 118.521, 0, 0, 17.3625, -9.60849, 17.3625, -129.608, 17.3625, 110.392, 3.38681E-009, -129.595
0, 2100.00000, 18694.9, -1.51569, 18694.9, -121.516, 18694.9, 118.484, 0, 0, 17.532, -9.64494, 17.532, -129.645, 17.532, 110.355, 3.41984E-009, -129.631
0, 2160.00000, 18653.1, -1.6523, 18653.1, -121.652, 18653.1, 118.348, 0, 0, 19.6819, -9.78219, 19.6819, -129.782, 19.6819, 110.218, 3.83876E-009, -129.765
0, 2220.00000, 18567.3, -1.91808, 18567.3, -121.918, 18567.3, 118.082, 0, 0, 20.6486, -10.0476, 20.6486, -130.048, 20.6486, 109.952, 4.02631E-009, -130.022
0, 2280.00000, 18564.3, -1.93074, 18564.3, -121.931, 18564.3, 118.069, 0, 0, 21.424, -10.0607, 21.424, -130.061, 21.424, 109.939, 4.17748E-009, -130.035
0, 2340.00000, 18572.1, -1.90134, 18572.1, -121.901, 18572.1, 118.099, 0, 0, 19.9891, -10.0319, 19.9891, -130.032, 19.9891, 109.968, 3.8977E-009, -130.006
0, 2400.00000, 18681.1, -1.58457, 18681.1, -121.585, 18681.1, 118.415, 0, 0, 20.2002, -9.71517, 20.2002, -129.715, 20.2002, 110.285, 3.94003E-009, -129.699
0, 2460.00000, 18692.9, -1.50564, 18692.9, -121.506, 18692.9, 118.494, 0, 0, 19.8602, -9.63628, 19.8602, -129.636, 19.8602, 110.364, 3.8738E-009, -129.622
0, 2520.00000, 18616.2, -1.73884, 18616.2, -121.739, 18616.2, 118.261, 0, 0, 19.3245, -9.86849, 19.3245, -129.868, 19.3245, 110.132, 3.76866E-009, -129.848
0, 2580.00000, 18598.4, -1.8048, 18598.4, -121.805, 18598.4, 118.195, 0, 0, 21.769, -9.93368, 21.769, -129.934, 21.769, 110.066, 4.24526E-009, -129.912
0, 2640.00000, 18594.1, -1.82295, 18594.1, -121.823, 18594.1, 118.177, 0, 0, 21.8826, -9.95276, 21.8826, -129.953, 21.8826, 110.047, 4.26725E-009, -129.93
0, 2700.00000, 18672.8, -1.57909, 18672.8, -121.579, 18672.8, 118.421, 0, 0, 21.7441, -9.70956, 21.7441, -129.71, 21.7441, 110.29, 4.24115E-009, -129.694
0, 2760.00000, 18685.4, -1.52541, 18685.4, -121.525, 18685.4, 118.475, 0, 0, 19.1818, -9.65626, 19.1818, -129.656, 19.1818, 110.344, 3.74146E-009, -129.641
0, 2820.00000, 18684.5, -1.53506, 18684.5, -121.535, 18684.5, 118.465, 0, 0, 19.4836, -9.66517, 19.4836, -129.665, 19.4836, 110.335, 3.80037E-009, -129.65
0, 2880.00000, 18663.3, -1.60868, 18663.3, -121.609, 18663.3, 118.391, 0, 0, 19.6398, -9.73702, 19.6398, -129.737, 19.6398, 110.263, 3.83072E-009, -129.721
0, 2940.00000, 18654.2, -1.64557, 18654.2, -121.646, 18654.2, 118.354, 0, 0, 21.2117, -9.77508, 21.2117, -129.775, 21.2117, 110.225, 4.13716E-009, -129.758
0, 3000.00000, 18647.1, -1.67716, 18647.1, -121.677, 18647.1, 118.323, 0, 0, 21.8253, -9.80681, 21.8253, -129.807, 21.8253, 110.193, 4.25673E-009, -129.789
0, 3060.00000, 18668.2, -1.59793, 18668.2, -121.598, 18668.2, 118.402, 0, 0, 21.7089, -9.7297, 21.7089, -129.73, 21.7089, 110.27, 4.23409E-009, -129.712
0, 3120.00000, 18681.8, -1.53959, 18681.8, -121.54, 18681.8, 118.46, 0, 0, 19.0367, -9.67049, 19.0367, -129.67, 19.0367, 110.33, 3.71308E-009, -129.655
0, 3180.00000, 18682.4, -1.5416, 18682.4, -121.542, 18682.4, 118.458, 0, 0, 19.0342, -9.6718, 19.0342, -129.672, 19.0342, 110.328, 3.71267E-009, -129.656
0, 3240.00000, 18675.9, -1.57349, 18675.9, -121.573, 18675.9, 118.427, 0, 0, 20.0968, -9.70325, 20.0968, -129.703, 20.0968, 110.297, 3.91989E-009, -129.688
0, 3300.00000, 18696.8, -1.51098, 18696.8, -121.511, 18696.8, 118.489, 0, 0, 20.6177, -9.643, 20.6177, -129.643, 20.6177, 110.357, 4.0216E-009, -129.628
0, 3360.00000, 18717.7, -1.44491, 18717.7, -121.445, 18717.7, 118.555, 0, 0, 20.6426, -9.57686, 20.6426, -129.577, 20.6426, 110.423, 4.02665E-009, -129.563
0, 3420.00000, 18733.5, -1.38467, 18733.5, -121.385, 18733.5, 118.615, 0, 0, 18.2858, -9.51589, 18.2858, -129.516, 18.2858, 110.484, 3.56707E-009, -129.504
0, 3480.00000, 18707, -1.47575, 18707, -121.476, 18707, 118.524, 0, 0, 19.2032, -9.60368, 19.2032, -129.604, 19.2032, 110.396, 3.74601E-009, -129.592
0, 3540.00000, 18710.8, -1.46211, 18710.8, -121.462, 18710.8, 118.538, 0, 0, 19.6466, -9.59252, 19.6466, -129.593, 19.6466, 110.407, 3.83238E-009, -129.58
1, 0.00000, 18670.8, -1.58007, 18670.8, -121.58, 18670.8, 118.42, 0, 0, 19.8362, -9.70999, 19.8362, -129.71, 19.8362, 110.29, 3.869E-009, -129.694
1, 60.00000, 18702.1, -1.46109, 18702.1, -121.461, 18702.1, 118.539, 0, 0, 17.769, -9.59353, 17.769, -129.594, 17.769, 110.406, 3.46594E-009, -129.579
1, 120.00000, 18703.6, -1.45732, 18703.6, -121.457, 18703.6, 118.543, 0, 0, 17.5055, -9.58755, 17.5055, -129.588, 17.5055, 110.412, 3.4147E-009, -129.574
1, 180.00000, 18700.6, -1.47096, 18700.6, -121.471, 18700.6, 118.529, 0, 0, 17.6341, -9.60086, 17.6341, -129.601, 17.6341, 110.399, 3.43977E-009, -129.588
1, 240.00000, 18706.5, -1.44678, 18706.5, -121.447, 18706.5, 118.553, 0, 0, 17.7436, -9.57728, 17.7436, -129.577, 17.7436, 110.423, 3.46111E-009, -129.563
1, 300.00000, 18707.6, -1.45137, 18707.6, -121.451, 18707.6, 118.549, 0, 0, 17.7889, -9.58166, 17.7889, -129.582, 17.7889, 110.418, 3.46997E-009, -129.568
1, 360.00000, 18711.5, -1.43625, 18711.5, -121.436, 18711.5, 118.564, 0, 0, 17.6153, -9.56664, 17.6153, -129.567, 17.6153, 110.433, 3.43611E-009, -129.554
1, 420.00000, 18702.5, -1.48875, 18702.5, -121.489, 18702.5, 118.511, 0, 0, 17.9823, -9.61834, 17.9823, -129.618, 17.9823, 110.382, 3.50769E-009, -129.605
1, 480.00000, 18706.1, -1.46963, 18706.1, -121.47, 18706.1, 118.53, 0, 0, 17.8094, -9.59994, 17.8094, -129.6, 17.8094, 110.4, 3.47393E-009, -129.586
1, 540.00000, 18704.5, -1.47225, 18704.5, -121.472, 18704.5, 118.528, 0, 0, 17.3546, -9.60217, 17.3546, -129.602, 17.3546, 110.398, 3.38521E-009, -129.589
1, 600.00000, 18703.9, -1.47938, 18703.9, -121.479, 18703.9, 118.521, 0, 0, 17.2694, -9.60947, 17.2694, -129.609, 17.2694, 110.391, 3.3686E-009, -129.596
1, 660.00000, 18717.6, -1.43311, 18717.6, -121.433, 18717.6, 118.567, 0, 0, 15.556, -9.56425, 15.556, -129.564, 15.556, 110.436, 3.03442E-009, -129.551
1, 720.00000, 18698.2, -1.4926, 18698.2, -121.493, 18698.2, 118.507, 0, 0, 15.353, -9.62096, 15.353, -129.621, 15.353, 110.379, 2.99479E-009, -129.608
1, 780.00000, 18695.5, -1.48427, 18695.5, -121.484, 18695.5, 118.516, 0, 0, 15.5966, -9.61397, 15.5966, -129.614, 15.5966, 110.386, 3.04224E-009, -129.6
1, 840.00000, 18712.5, -1.43777, 18712.5, -121.438, 18712.5, 118.562, 0, 0, 15.9483, -9.56947, 15.9483, -129.569, 15.9483, 110.431, 3.11092E-009, -129.556
1, 900.00000, 18725.6, -1.402, 18725.6, -121.402, 18725.6, 118.598, 0, 0, 15.7885, -9.53329, 15.7885, -129.533, 15.7885, 110.467, 3.07985E-009, -129.521
1, 960.00000, 18706.9, -1.48119, 18706.9, -121.481, 18706.9, 118.519, 0, 0, 15.9493, -9.60996, 15.9493, -129.61, 15.9493, 110.39, 3.1112E-009, -129.597
1, 1020.00000, 18705.1, -1.48656, 18705.1, -121.487, 18705.1, 118.513, 0, 0, 15.4424, -9.61647, 15.4424, -129.616, 15.4424, 110.384, 3.01228E-009, -129.603
1, 1080.00000, 18701.2, -1.50123, 18701.2, -121.501, 18701.2, 118.499, 0, 0, 15.4544, -9.63103, 15.4544, -129.631, 15.4544, 110.369, 3.01459E-009, -129.618
1, 1140.00000, 18683.1, -1.57469, 18683.1, -121.575, 18683.1, 118.425, 0, 0, 15.7085, -9.70348, 15.7085, -129.703, 15.7085, 110.297, 3.06409E-009, -129.689
1, 1200.00000, 18684.4, -1.56874, 18684.4, -121.569, 18684.4, 118.431, 0, 0, 16.0601, -9.69897, 16.0601, -129.699, 16.0601, 110.301, 3.13264E-009, -129.684
1, 1260.00000, 18658.4, -1.71987, 18658.4, -121.72, 18658.4, 118.28, 0, 0, 18.1893, -9.84864, 18.1893, -129.849, 18.1893, 110.151, 3.54783E-009, -129.832
1, 1320.00000, 18650.1, -1.74888, 18650.1, -121.749, 18650.1, 118.251, 0, 0, 19.111, -9.87833, 19.111, -129.878, 19.111, 110.122, 3.72738E-009, -129.86
1, 1380.00000, 18649.4, -1.75227, 18649.4, -121.752, 18649.4, 118.248, 0, 0, 19.591, -9.88236, 19.591, -129.882, 19.591, 110.118, 3.82097E-009, -129.864
1, 1440.00000, 18665, -1.70296, 18665, -121.703, 18665, 118.297, 0, 0, 17.0055, -9.83427, 17.0055, -129.834, 17.0055, 110.166, 3.31674E-009, -129.816
1, 1500.00000, 18671.9, -1.67385, 18671.9, -121.674, 18671.9, 118.326, 0, 0, 17.2818, -9.80449, 17.2818, -129.804, 17.2818, 110.196, 3.37072E-009, -129.788
1, 1560.00000, 18671.1, -1.68352, 18671.1, -121.684, 18671.1, 118.316, 0, 0, 18.143, -9.8137, 18.143, -129.814, 18.143, 110.186, 3.53872E-009, -129.797
1, 1620.00000, 18670.9, -1.68818, 18670.9, -121.688, 18670.9, 118.312, 0, 0, 18.1231, -9.8183, 18.1231, -129.818, 18.1231, 110.182, 3.53482E-009, -129.801
1, 1680.00000, 18650.3, -1.76376, 18650.3, -121.764, 18650.3, 118.236, 0, 0, 20.3777, -9.89229, 20.3777, -129.892, 20.3777, 110.108, 3.97447E-009, -129.875
1, 1740.00000, 18643.2, -1.80276, 18643.2, -121.803, 18643.2, 118.197, 0, 0, 20.3696, -9.93243, 20.3696, -129.932, 20.3696, 110.068, 3.97276E-009, -129.913
1, 1800.00000, 18629.1, -1.84513, 18629.1, -121.845, 18629.1, 118.155, 0, 0, 20.3025, -9.9739, 20.3025, -129.974, 20.3025, 110.026, 3.95953E-009, -129.954
1, 1860.00000, 18666.4, -1.71771, 18666.4, -121.718, 18666.4, 118.282, 0, 0, 18.0012, -9.84801, 18.0012, -129.848, 18.0012, 110.152, 3.51098E-009, -129.83
1, 1920.00000, 18669.5, -1.71411, 18669.5, -121.714, 18669.5, 118.286, 0, 0, 17.641, -9.84453, 17.641, -129.845, 17.641, 110.155, 3.44073E-009, -129.827
1, 1980.00000, 18670.1, -1.71111, 18670.1, -121.711, 18670.1, 118.289, 0, 0, 17.499, -9.84124, 17.499, -129.841, 17.499, 110.159, 3.41303E-009, -129.824
1, 2040.00000, 18676.1, -1.68581, 18676.1, -121.686, 18676.1, 118.314, 0, 0, 17.553, -9.81638, 17.553, -129.816, 17.553, 110.184, 3.42359E-009, -129.799
1, 2100.00000, 18681.3, -1.66218, 18681.3, -121.662, 18681.3, 118.338, 0, 0, 17.2187, -9.79265, 17.2187, -129.793, 17.2187, 110.207, 3.35844E-009, -129.776
1, 2160.00000, 18692.4, -1.63225, 18692.4, -121.632, 18692.4, 118.368, 0, 0, 16.7648, -9.76332, 16.7648, -129.763, 16.7648, 110.237, 3.26993E-009, -129.747
1, 2220.00000, 18688, -1.64994, 18688, -121.65, 18688, 118.35, 0, 0, 17.2877, -9.77973, 17.2877, -129.78, 17.2877, 110.22, 3.37194E-009, -129.763
1, 2280.00000, 18692.8, -1.63242, 18692.8, -121.632, 18692.8, 118.368, 0, 0, 16.2346, -9.76284, 16.2346, -129.763, 16.2346, 110.237, 3.16652E-009, -129.747
1, 2340.00000, 18689.4, -1.63544, 18689.4, -121.635, 18689.4, 118.365, 0, 0, 17.3104, -9.76515, 17.3104, -129.765, 17.3104, 110.235, 3.37633E-009, -129.749
1, 2400.00000, 18688.3, -1.6395, 18688.3, -121.64, 18688.3, 118.36, 0, 0, 17.0681, -9.76951, 17.0681, -129.77, 17.0681, 110.23, 3.32906E-009, -129.753
1, 2460.00000, 18700.1, -1.54689, 18700.1, -121.547, 18700.1, 118.453, 0, 0, 17.2107, -9.67749, 17.2107, -129.677, 17.2107, 110.323, 3.35694E-009, -129.662
1, 2520.00000, 18711.9, -1.51435, 18711.9, -121.514, 18711.9, 118.486, 0, 0, 17.7161, -9.64561, 17.7161, -129.646, 17.7161, 110.354, 3.45568E-009, -129.631
1, 2580.00000, 18707.5, -1.53316, 18707.5, -121.533, 18707.5, 118.467, 0, 0, 18.4062, -9.66297, 18.4062, -129.663, 18.4062, 110.337, 3.59031E-009, -129.649
1, 2640.00000, 18710.5, -1.52297, 18710.5, -121.523, 18710.5, 118.477, 0, 0, 18.0697, -9.6533, 18.0697, -129.653, 18.0697, 110.347, 3.52468E-009, -129.639
1, 2700.00000, 18700.3, -1.56887, 18700.3, -121.569, 18700.3, 118.431, 0, 0, 20.7662, -9.69837, 20.7662, -129.698, 20.7662, 110.302, 4.0506E-009, -129.684
1, 2760.00000, 18699.2, -1.55844, 18699.2, -121.558, 18699.2, 118.442, 0, 0, 20.7351, -9.68833, 20.7351, -129.688, 20.7351, 110.312, 4.0445E-009, -129.674
1, 2820.00000, 18695.4, -1.56658, 18695.4, -121.567, 18695.4, 118.433, 0, 0, 20.9472, -9.69631, 20.9472, -129.696, 20.9472, 110.304, 4.08589E-009, -129.682
1, 2880.00000, 18715.6, -1.49132, 18715.6, -121.491, 18715.6, 118.509, 0, 0, 17.9534, -9.62289, 17.9534, -129.623, 17.9534, 110.377, 3.50198E-009, -129.609
1, 2940.00000, 18695.9, -1.56503, 18695.9, -121.565, 18695.9, 118.435, 0, 0, 20.7442, -9.6937, 20.7442, -129.694, 20.7442, 110.306, 4.04635E-009, -129.68
1, 3000.00000, 18691.8, -1.6236, 18691.8, -121.624, 18691.8, 118.376, 0, 0, 20.8375, -9.75382, 20.8375, -129.754, 20.8375, 110.246, 4.06441E-009, -129.738
1, 3060.00000, 18692, -1.61565, 18692, -121.616, 18692, 118.384, 0, 0, 22.4934, -9.74582, 22.4934, -129.746, 22.4934, 110.254, 4.38735E-009, -129.73
1, 3120.00000, 18716.5, -1.53706, 18716.5, -121.537, 18716.5, 118.463, 0, 0, 20.44, -9.66924, 20.44, -129.669, 20.44, 110.331, 3.98696E-009, -129.654
1, 3180.00000, 18719.1, -1.52512, 18719.1, -121.525, 18719.1, 118.475, 0, 0, 19.9338, -9.65538, 19.9338, -129.655, 19.9338, 110.345, 3.88835E-009, -129.642
1, 3240.00000, 18739.8, -1.43878, 18739.8, -121.439, 18739.8, 118.561, 0, 0, 17.0774, -9.57039, 17.0774, -129.57, 17.0774, 110.43, 3.33124E-009, -129.558
1, 3300.00000, 18730.5, -1.47349, 18730.5, -121.473, 18730.5, 118.527, 0, 0, 17.5906, -9.60284, 17.5906, -129.603, 17.5906, 110.397, 3.43141E-009, -129.591
1, 3360.00000, 18725.3, -1.49281, 18725.3, -121.493, 18725.3, 118.507, 0, 0, 17.9054, -9.62249, 17.9054, -129.622, 17.9054, 110.378, 3.49274E-009, -129.61
1, 3420.00000, 18731.5, -1.46602, 18731.5, -121.466, 18731.5, 118.534, 0, 0, 17.6596, -9.5966, 17.6596, -129.597, 17.6596, 110.403, 3.44482E-009, -129.584
1, 3480.00000, 18734.9, -1.45369, 18734.9, -121.454, 18734.9, 118.546, 0, 0, 17.7581, -9.58409, 17.7581, -129.584, 17.7581, 110.416, 3.46407E-009, -129.572
1, 3540.00000, 18739.9, -1.42681, 18739.9, -121.427, 18739.9, 118.573, 0, 0, 17.3371, -9.55724, 17.3371, -129.557, 17.3371, 110.443, 3.38199E-009, -129.545
2, 0.00000, 18742.3, -1.45759, 18742.3, -121.458, 18742.3, 118.542, 0, 0, 16.9661, -9.58818, 16.9661, -129.588, 16.9661, 110.412, 3.30962E-009, -129.576
2, 60.00000, 18744.6, -1.44768, 18744.6, -121.448, 18744.6, 118.552, 0, 0, 16.265, -9.57792, 16.265, -129.578, 16.265, 110.422, 3.17284E-009, -129.566
2, 120.00000, 18742.8, -1.45412, 18742.8, -121.454, 18742.8, 118.546, 0, 0, 16.435, -9.58404, 16.435, -129.584, 16.435, 110.416, 3.20598E-009, -129.572
2, 180.00000, 18683.4, -1.66245, 18683.4, -121.662, 18683.4, 118.338, 0, 0, 27.6759, -9.79228, 27.6759, -129.792, 27.6759, 110.208, 5.39806E-009, -129.776
2, 240.00000, 18675.7, -1.68961, 18675.7, -121.69, 18675.7, 118.31, 0, 0, 27.5785, -9.81906, 27.5785, -129.819, 27.5785, 110.181, 5.37902E-009, -129.802
2, 300.00000, 18748.5, -1.40633, 18748.5, -121.406, 18748.5, 118.594, 0, 0, 15.5325, -9.5367, 15.5325, -129.537, 15.5325, 110.463, 3.03002E-009, -129.525
2, 360.00000, 18759.6, -1.36596, 18759.6, -121.366, 18759.6, 118.634, 0, 0, 15.0373, -9.49694, 15.0373, -129.497, 15.0373, 110.503, 2.93345E-009, -129.486
2, 420.00000, 18761.1, -1.35411, 18761.1, -121.354, 18761.1, 118.646, 0, 0, 14.9931, -9.48428, 14.9931, -129.484, 14.9931, 110.516, 2.92486E-009, -129.474
2, 480.00000, 18761.4, -1.35239, 18761.4, -121.352, 18761.4, 118.648, 0, 0, 14.9338, -9.48251, 14.9338, -129.482, 14.9338, 110.517, 2.91328E-009, -129.472
2, 540.00000, 18751.8, -1.33839, 18751.8, -121.338, 18751.8, 118.662, 0, 0, 15.0997, -9.46744, 15.0997, -129.467, 15.0997, 110.533, 2.94567E-009, -129.458
